
**** 05/31/19 21:56:05 ********* PSpice 9.2 (Mar 2000) ******** ID# 0 ********

 ** Profile: "SCHEMATIC1-a"  [ D:\backep c\Uni\Term e 4\Electric Circuits\HW\8\orc\2-SCHEMATIC1-a.sim ] 


 ****     CIRCUIT DESCRIPTION


******************************************************************************




** Creating circuit file "2-SCHEMATIC1-a.sim.cir" 
** WARNING: THIS AUTOMATICALLY GENERATED FILE MAY BE OVERWRITTEN BY SUBSEQUENT SIMULATIONS

*Libraries: 
* Local Libraries :
* From [PSPICE NETLIST] section of C:\Orcad\PSpice\PSpice.ini file:
.lib "nom.lib" 

*Analysis directives: 
.TRAN  0 10s 0 
.PROBE V(*) I(*) W(*) D(*) NOISE(*) 
.INC ".\2-SCHEMATIC1.net" 



**** INCLUDING 2-SCHEMATIC1.net ****
* source 2
E_U1         N00029 0 VALUE {LIMIT(V(N00074,0)*1E6,-15V,+15V)}
R_R1         N00074 N00029  1k  
C_C1         N00211 N00074  1n  
V_V2         N00238 0 1Vdc
C_C2         N00211 N00029  1n  
R_R2         N00238 N00211  1k  

**** RESUMING 2-SCHEMATIC1-a.sim.cir ****
.END

**** 05/31/19 21:56:05 ********* PSpice 9.2 (Mar 2000) ******** ID# 0 ********

 ** Profile: "SCHEMATIC1-a"  [ D:\backep c\Uni\Term e 4\Electric Circuits\HW\8\orc\2-SCHEMATIC1-a.sim ] 


 ****     INITIAL TRANSIENT SOLUTION       TEMPERATURE =   27.000 DEG C


******************************************************************************



 NODE   VOLTAGE     NODE   VOLTAGE     NODE   VOLTAGE     NODE   VOLTAGE


(N00029)    0.0000 (N00074)    0.0000 (N00211)    1.0000 (N00238)    1.0000 




    VOLTAGE SOURCE CURRENTS
    NAME         CURRENT

    V_V2         0.000E+00

    TOTAL POWER DISSIPATION   0.00E+00  WATTS



          JOB CONCLUDED

          TOTAL JOB TIME             .02
